
**** 01/16/25 10:14:05 ********* PSpice 9.2 (Mar 2000) ******** ID# 1 ********

 *CIRCUIT DE LUCRU


 ****     CIRCUIT DESCRIPTION


******************************************************************************



*             RN D E CK QN Q  Vdd
.subckt EDFFTR 1 2 3 13 15 16 17

X1 1 4 17 INV
X2 2 5 17 INV
X3 3 6 17 INV
X4 5 3 8 17 AND2
X5 6 7 9 17 AND2
X6 4 8 9 10 17 NOR3
X7 10 20 21 11 17 INVC
X8 11 12 17 INV
X9 12 21 20 11 17 INVC
X10 12 21 20 7 17 INVC
X11 7 14 17 INV
X12 14 20 21 7 17 INVC
X13 14 15 17 INV
X14 7 16 17 INV
X15 13 20 17 INV
X16 20 21 17 INV
.ends





*Testarea circuitului
.INC CMOS_EKV26_05.txt

**** INCLUDING CMOS_EKV26_05.txt ****
********************************************************************** 
*  EKV v2.6 parameters for 0.5um CMOS  (C) EPFL-LEG, 1999 
*  ---------------------------------- 
* 
*  ELDO (LEVEL = 44) / PSPICE (LEVEL = 5) example parameter set 
*  for the EKV v2.6 model is provided for NMOS and PMOS. 
* 
* 
*  IMPORTANT NOTES: 
*  ---------------- 
* 
*  Parameters do not correspond to a particular technology but 
*  have reasonable values for standard 0.5um CMOS. 
*  Not intended for use in real design. 
* 
*  Includes all intrinsic model parameters. An example set for 
*  extrinsic model parameters is provided. 
* 
*  Geometry range:  W >= 0.8um, L >= 0.5um 
*  Voltage range:   |Vgb| < 3.3V, |Vdb| < 3.3V,  |Vsb| < 2V 
* 
*  For use with either simulator, comment/uncomment respective lines. 
*  Use of extrinsic model parameters and models (series resistance, 
*  junction currents/capacitances) is in general simulator-dependent. 
* 
********************************************************************** 

*  EKV v2.6 NMOS 
*--------------- 
.MODEL NMOS NMOS 
*+ LEVEL  = 44    ; ELDO 
+ LEVEL  = 5   ; ! PSPICE 
*** Setup Parameters 
*+ UPDATE = 2.6    ; ELDO 
*+ XQC    = 0.4    ; ELDO 
*** Process Related Model Parameters 
+ COX    = 3.45E-3 
+ XJ     = 0.15E-6 
*** Intrinsic Model Parameters 
+ VTO    = 0.6 
+ GAMMA  = 0.71 
+ PHI    = 0.97 
+ KP     = 150E-6 
+ E0     = 88.0E6 
+ UCRIT  = 4.5E6 
+ DL     = -0.05E-6 
+ DW     = -0.02E-6 
+ LAMBDA = 0.23 
+ LETA   = 0.28 
+ WETA   = 0.05 
+ Q0     = 280E-6 
+ LK     = 0.5E-6 
*** Substrate Current Parameters 
+ IBN    = 1.0 
+ IBA    = 200E6 
+ IBB    = 350E6 
*** Intrinsic Model Temperature Parameters 
+ TNOM   = 25.0 
+ TCV    = 1.5E-3 
+ BEX    = -1.5 
+ UCEX   = 1.7 
+ IBBT   = 0.0 
*** 1/f Noise Model Parameters 
+ KF     = 1E-27 
+ AF     = 1 
*** Short-Distance Matching Statistical Parameters (for MC simulation only) 
*+ AVTO   = 0  DEV = 10.0E-3 ; ELDO v4.6 
*+ AGAMMA = 0  DEV = 10.0E-3 ; ELDO v4.6 
*+ AKP    = 0  DEV = 25.0E-3 ; ELDO v4.6 
*+ AVTO   =  DEV = 15.0E-9 ;! PSPICE 
*+ AGAMMA =  DEV = 15.0E-9 ;! PSPICE 
*+ AKP    =  DEV = 25.0E-9 ;! PSPICE 
*** Series Resistance and Area Calulation Parameters 
*+ RLEV   = 3    ; ELDO 
+ HDIF   = 0.9E-6 
+ RSH    = 510 
*** Junction Current Parameters 
*+ ALEV   = 3    ; ELDO 
+ JS     = 8.0E-6 
+ JSW    = 1.5E-10 
+ XTI    = 0 
+ N      = 1.5 
*** Junction Capacitances Parameters 
+ CJ     = 8.0E-4 
+ CJSW   = 3.0E-10 
+ MJ     = 0.5 
+ MJSW   = 0.3 
+ PB     = 0.9 
+ PBSW   = 0.5 
+ FC     = 0.5 
*** Gate Overlap Capacitances 
+ CGSO   = 1.5E-10 
+ CGDO   = 1.5E-10 
+ CGBO   = 4.0E-10 
  

*  EKV v2.6 PMOS 
*--------------- 
.MODEL PMOS PMOS 
*+ LEVEL  = 44    ; ELDO 
+ LEVEL  = 5   ; ! PSPICE 
*** Setup Parameters 
+ UPDATE = 2.6 
+ XQC    = 0.4 
*** Process Related Model Parameters 
+ COX    = 3.45E-3 
+ XJ     = 0.15E-6 
*** Intrinsic Model Parameters 
+ VTO    = -0.55 
+ GAMMA  = 0.69 
+ PHI    = 0.87 
+ KP     = 35.0E-6 
+ E0     = 51.0E6 
+ UCRIT  = 18.0E6 
+ DL     = -0.05E-6 
+ DW     = -0.03E-6 
+ LAMBDA = 1.1 
+ LETA   = 0.45 
+ WETA   = 0.0 
+ Q0     = 200E-6 
+ LK     = 0.6E-6 
*** Substrate Current Parameters 
+ IBN    = 1.0 
+ IBA    = 0.0 
+ IBB    = 300E6 
*** Intrinsic Model Temperature Parameters 
+ TNOM   = 25.0 
+ TCV    = -1.4E-3 
+ BEX    = -1.4 
+ UCEX   = 2.0 
+ IBBT   = 0.0 
*** 1/f Noise Model Parameters 
+ KF     = 1.0E-28 
+ AF     = 1 
*** Short-Distance Matching Statistical Parameters (for MC simulation only) 
*+ AVTO   = 0  DEV = 10.0E-3 ; ELDO v4.6 
*+ AGAMMA = 0  DEV = 10.0E-3 ; ELDO v4.6 
*+ AKP    = 0  DEV = 25.0E-3 ; ELDO v4.6 
*+ AVTO   =  DEV = 10.0E-9 ;! PSPICE 
*+ AGAMMA =  DEV = 10.0E-9 ;! PSPICE 
*+ AKP    =  DEV = 25.0E-9 ;! PSPICE 
*** Series Resistance and Area Calulation Parameters 
*+ RLEV   = 3    ; ELDO 
+ HDIF   = 0.9E-6 
+ RSH    = 990 
*** Junction Current Parameters 
*+ ALEV   = 3    ; ELDO 
+ JS     = 4.0E-5 
+ JSW    = 7.0E-10 
+ XTI    = 0 
+ N      = 1.8 
*** Junction Capacitances Parameters 
+ CJ     = 8.0E-4 
+ CJSW   = 4.0E-10 
+ MJ     = 0.5 
+ MJSW   = 0.35 
+ PB     = 0.9 
+ PBSW   = 0.8 
+ FC     = 0.5 
*** Gate Overlap Capacitances 
+ CGSO   = 1.5E-10 
+ CGDO   = 1.5E-10 
+ CGBO   = 4.0E-10

**** RESUMING EDFFTR.cir ****
.INC AND2.txt

**** INCLUDING AND2.txt ****
*SUBCIRCUIT AND2
           * I I O Vdd
.subckt AND2 1 2 4 5
Xnand2 1 2 3 5 NAND2
Xinv 3 4 5 INV
.ends

**** RESUMING EDFFTR.cir ****
.INC NAND2.txt

**** INCLUDING NAND2.txt ****
*SUBCIRCUIT NAND2
            * I I O Vdd
.subckt NAND2 1 2 4 5
MN1 4 1 3 0 NMOS L=0.5U W=1U
MN2 3 2 0 0 NMOS L=0.5U W=1U

MP1 4 1 5 5 PMOS L=0.5U W=2.14U
MP2 4 2 5 5 PMOS L=0.5U W=2.14U
.ends

**** RESUMING EDFFTR.cir ****
.INC NOR3.txt

**** INCLUDING NOR3.txt ****
*SUBCIRCUIT NOR3
           * I I I O Vdd
.subckt NOR3 1 2 3 5 4
MN1 5 1 0 0 NMOS L=0.5U W=1U
MN2 5 2 0 0 NMOS L=0.5U W=1U
MN3 5 3 0 0 NMOS L=0.5U W=1U

MP1 7 1 4 4 PMOS L=0.5U W=12.86U
MP2 6 2 7 4 PMOS L=0.5U W=12.86U
MP3 5 3 6 4 PMOS L=0.5U W=12.86U
.ends

**** RESUMING EDFFTR.cir ****
.INC INVERSOR.txt

**** INCLUDING INVERSOR.txt ****
*SUBCIRCUIT INVERSOR
*           I O Vdd
.subckt INV 1 2 3
MN1 2 1 0 0 NMOS L=0.5U W=1U
*   D G S Substr
MP1 2 1 3 3 PMOS L=0.5U W=4.28U
.ends

**** RESUMING EDFFTR.cir ****
.INC INVERSORC.txt

**** INCLUDING INVERSORC.txt ****
*SUBCIRCUIT INVERSOR COMANDAT 
           * I C Cn O Vdd
.subckt INVC 1 2 3 4 5
MN1 4 2 7 0 NMOS L=0.5U W=1U
MN2 7 1 0 0 NMOS L=0.5U W=1U

MP1 6 1 5 5 PMOS L=0.5U W=4.28U
MP2 4 3 6 5 PMOS L=0.5U W=4.28U
.ends 

**** RESUMING EDFFTR.cir ****


*OBS am pus valorile la C=0 pentru a putea observa mai bine trecerile intre stari.(Modelarea reala are si C=0.4p)

XEDFFTR 1 2 3 13 15 16 17 EDFFTR
VDD 17 0 {vdd}
VCK 13 0 PULSE(5 0 0 {tr} {tr} 2n 4n)
VRN 1 0 PULSE(5 0 0 0.4N 0.4N 5N 90N)
VD 2 0 PULSE(0 5 0 0.4N 0.4N 12N 16N)
VE 3 0 PULSE(5 0 0 0.4n 0.4N 30N 60n)
.param vdd=5
.param tr=0.4n
CL1 15 0 {CL}
CL2 16 0 {CL}
.param CL=0.4p
.TRAN 1n 100n 
.PROBE
.END

**** 01/16/25 10:14:05 ********* PSpice 9.2 (Mar 2000) ******** ID# 1 ********

 *CIRCUIT DE LUCRU


 ****     MOSFET MODEL PARAMETERS


******************************************************************************




               NMOS            PMOS            
               NMOS            PMOS            
  T_Measured   25              25            
   T_Current   27              27            
       LEVEL    5               5            
           L  100.000000E-06  100.000000E-06 
           W  100.000000E-06  100.000000E-06 
          LD  -50.000000E-09  -50.000000E-09 
          WD  -20.000000E-09  -30.000000E-09 
         VTO     .6             -.55         
          KP  150.000000E-06   35.000000E-06 
       GAMMA     .71             .69         
         PHI     .97             .87         
      LAMBDA     .23            1.1          
         RSH  510             990            
          IS   10.000000E-15   10.000000E-15 
          JS    8.000000E-06   40.000000E-06 
        JSSW  150.000000E-12  700.000000E-12 
           N    1.5             1.8          
          PB     .9              .9          
        PBSW     .5              .8          
          CJ  800.000000E-06  800.000000E-06 
        CJSW  300.000000E-12  400.000000E-12 
        MJSW     .3              .35         
        CGSO  150.000000E-12  150.000000E-12 
        CGDO  150.000000E-12  150.000000E-12 
        CGBO  400.000000E-12  400.000000E-12 
         TOX  100.000000E-09  100.000000E-09 
          XJ  150.000000E-09  150.000000E-09 
       UCRIT    4.500000E+06   18.000000E+06 
          KF    1.000000E-27  100.000000E-30 
      DIOMOD    1               1            
         VFB    0               0            
        LETA     .28             .45         
        WETA     .05            0            
          U0    0               0            
        TEMP    0               0            
         VDD    0               0            
       XPART    0               0            
         XTI    0               0            
        HDIF  900.000000E-09  900.000000E-09 
         COX    3.450000E-03    3.450000E-03 
          E0   88.000000E+06   51.000000E+06 
         IBA  200.000000E+06                 
         IBB  350.000000E+06                 
         TCV    1.500000E-03   -1.400000E-03 
         BEX                   -1.4          
        UCEX    1.7             2            
        IBBT    0               0            
          Q0  280.000000E-06  200.000000E-06 
          LK  500.000000E-09  600.000000E-09 


**** 01/16/25 10:14:05 ********* PSpice 9.2 (Mar 2000) ******** ID# 1 ********

 *CIRCUIT DE LUCRU


 ****     INITIAL TRANSIENT SOLUTION       TEMPERATURE =   27.000 DEG C


******************************************************************************



 NODE   VOLTAGE     NODE   VOLTAGE     NODE   VOLTAGE     NODE   VOLTAGE


(    1)    5.0000  (    2)    0.0000  (    3)    5.0000  (   13)    5.0000      

(   15)    5.0000  (   16) 11.67E-09  (   17)    5.0000  (XEDFFTR.4) 11.67E-09  

(XEDFFTR.5)    5.0000                 (XEDFFTR.6) 11.67E-09                     

(XEDFFTR.7)    5.0000                 (XEDFFTR.8)    5.0000                     

(XEDFFTR.9) 11.67E-09                 (XEDFFTR.10) 31.05E-09                    

(XEDFFTR.11)    5.0000                (XEDFFTR.12) 11.67E-09                    

(XEDFFTR.14) 11.67E-09                (XEDFFTR.20) 11.67E-09                    

(XEDFFTR.21)    5.0000                (XEDFFTR.X4.3) 45.62E-09                  

(XEDFFTR.X5.3)    5.0000              (XEDFFTR.X6.6)     .8753                  

(XEDFFTR.X6.7)    5.0000              (XEDFFTR.X7.6)    5.0000                  

(XEDFFTR.X7.7)     .0040              (XEDFFTR.X9.6)    5.0000                  

(XEDFFTR.X9.7)    3.9157              (XEDFFTR.X10.6)    5.0000                 

(XEDFFTR.X10.7)    3.9157             (XEDFFTR.X12.6)    5.0000                 

(XEDFFTR.X12.7)     .0040             (XEDFFTR.X4.Xnand2.3) 22.81E-09           

(XEDFFTR.X5.Xnand2.3) 23.82E-12       




    VOLTAGE SOURCE CURRENTS
    NAME         CURRENT

    VDD         -1.217E-10
    VCK          0.000E+00
    VRN          0.000E+00
    VD           0.000E+00
    VE           0.000E+00

    TOTAL POWER DISSIPATION   6.08E-10  WATTS



          JOB CONCLUDED

          TOTAL JOB TIME             .52
